T0654 4069:062.819   SEGGER J-Link V7.56a Log File
T0654 4069:062.972   DLL Compiled: Oct 11 2021 16:27:21
T0654 4069:062.990   Logging started @ 2023-02-06 11:42
T0654 4069:063.007 - 344529.161ms
T0654 4069:063.037 JLINK_SetWarnOutHandler(...)
T0654 4069:063.054 - 0.025ms
T0654 4069:063.078 JLINK_OpenEx(...)
T0654 4069:064.929   Firmware: J-Link V11 compiled Sep 21 2020 17:00:29
T0654 4069:065.568   Firmware: J-Link V11 compiled Sep 21 2020 17:00:29
T0654 4069:086.203   Hardware: V11.00
T0654 4069:086.239   S/N: 261009615
T0654 4069:086.257   OEM: SEGGER-EDU
T0654 4069:086.275   Feature(s): FlashBP, GDB
T0654 4069:088.429   TELNET listener socket opened on port 19021
T0654 4069:096.597   WEBSRV WEBSRV_Init(): Starting webserver thread(s)
T0654 4069:096.859   WEBSRV Webserver running on local port 19080
T0654 4069:123.127 - 60.074ms returns "O.K."
T0654 4069:123.183 JLINK_GetEmuCaps()
T0654 4069:123.197 - 0.020ms returns 0xB9FF7BBF
T0654 4069:123.219 JLINK_TIF_GetAvailable(...)
T0654 4069:123.567 - 0.363ms
T0654 4069:123.604 JLINK_SetErrorOutHandler(...)
T0654 4069:123.617 - 0.018ms
T0654 4069:123.995 JLINK_ExecCommand("ProjectFile = "H:\IMD\ARUN_HDC1080_1\2022-010-AWS4G-ATRH\2022-010-AWS4G-MAHAVEDH-FRT-CUMULATIVE_RAIN-main\KEIL WORKSPACE\JLinkSettings.ini"", ...). 
T0654 4069:125.471 - 1.490ms returns 0x00
T0654 4069:128.371 JLINK_ExecCommand("Device = LPC1768", ...). 
T0654 4069:131.698   Device "LPC1768" selected.
T0654 4069:132.344 - 3.949ms returns 0x00
T0654 4069:132.380 JLINK_ExecCommand("DisableConnectionTimeout", ...). 
T0654 4069:132.402 - 0.009ms returns 0x01
T0654 4069:132.430 JLINK_GetHardwareVersion()
T0654 4069:132.446 - 0.024ms returns 110000
T0654 4069:132.469 JLINK_GetDLLVersion()
T0654 4069:132.485 - 0.023ms returns 75601
T0654 4069:132.508 JLINK_GetOEMString(...)
T0654 4069:138.966 JLINK_GetDLLVersion()
T0654 4069:138.998 - 0.038ms returns 75601
T0654 4069:139.022 JLINK_GetCompileDateTime()
T0654 4069:139.034 - 0.017ms
T0654 4069:140.833 JLINK_GetFirmwareString(...)
T0654 4069:140.856 - 0.030ms
T0654 4069:142.775 JLINK_GetHardwareVersion()
T0654 4069:142.806 - 0.037ms returns 110000
T0654 4069:144.556 JLINK_GetSN()
T0654 4069:144.579 - 0.029ms returns 261009615
T0654 4069:148.101 JLINK_GetOEMString(...)
T0654 4069:153.381 JLINK_TIF_Select(JLINKARM_TIF_JTAG)
T0654 4069:154.665 - 1.306ms returns 0x00
T0654 4069:154.709 JLINK_HasError()
T0654 4069:154.738 JLINK_SetSpeed(5000)
T0654 4069:154.964 - 0.239ms
T0654 4069:154.997 JLINK_GetIdData(pIdData)
T0654 4069:158.261   TotalIRLen = 4, IRPrint = 0x01
T0654 4069:160.850   JTAG chain detection found 1 devices:
T0654 4069:163.762    #0 Id: 0x4BA00477, IRLen: 04, CoreSight JTAG-DP
T0654 4069:167.249   DPv0 detected
T0654 4069:169.104   Scanning AP map to find all available APs
T0654 4069:171.622   AP[1]: Stopped AP scan as end of AP map has been reached
T0654 4069:173.461   AP[0]: AHB-AP (IDR: 0x24770011)
T0654 4069:175.270   Iterating through AP map to find AHB-AP to use
T0654 4069:178.220   AP[0]: Core found
T0654 4069:180.203   AP[0]: AHB-AP ROM base: 0xE00FF000
T0654 4069:182.784   CPUID register: 0x412FC230. Implementer code: 0x41 (ARM)
T0654 4069:184.507   Found Cortex-M3 r2p0, Little endian.
T0654 4069:185.231   -- Max. mem block: 0x000045C8
T0654 4069:185.536   CPU_ReadMem(4 bytes @ 0xE000EDF0)
T0654 4069:186.118   CPU_WriteMem(4 bytes @ 0xE000EDF0)
T0654 4069:186.450   CPU_ReadMem(4 bytes @ 0xE0002000)
T0654 4069:188.905   FPUnit: 6 code (BP) slots and 2 literal slots
T0654 4069:188.951   CPU_ReadMem(4 bytes @ 0xE000EDFC)
T0654 4069:189.366   CPU_WriteMem(4 bytes @ 0xE000EDFC)
T0654 4069:189.812   CPU_ReadMem(4 bytes @ 0xE0001000)
T0654 4069:190.203   CPU_WriteMem(4 bytes @ 0xE0001000)
T0654 4069:190.592   CPU_ReadMem(4 bytes @ 0xE000ED88)
T0654 4069:190.926   CPU_WriteMem(4 bytes @ 0xE000ED88)
T0654 4069:191.203   CPU_ReadMem(4 bytes @ 0xE000ED88)
T0654 4069:191.541   CPU_WriteMem(4 bytes @ 0xE000ED88)
T0654 4069:194.010   CoreSight components:
T0654 4069:195.910   ROMTbl[0] @ E00FF000
T0654 4069:196.056   CPU_ReadMem(64 bytes @ 0xE00FF000)
T0654 4069:196.679   CPU_ReadMem(32 bytes @ 0xE000EFE0)
T0654 4069:199.223   [0][0]: E000E000 CID B105E00D PID 002BB000 SCS
T0654 4069:199.266   CPU_ReadMem(32 bytes @ 0xE0001FE0)
T0654 4069:201.880   [0][1]: E0001000 CID B105E00D PID 002BB002 DWT
T0654 4069:201.927   CPU_ReadMem(32 bytes @ 0xE0002FE0)
T0654 4069:204.492   [0][2]: E0002000 CID B105E00D PID 002BB003 FPB
T0654 4069:204.533   CPU_ReadMem(32 bytes @ 0xE0000FE0)
T0654 4069:207.220   [0][3]: E0000000 CID B105E00D PID 002BB001 ITM
T0654 4069:207.271   CPU_ReadMem(32 bytes @ 0xE0040FE0)
T0654 4069:210.200   [0][4]: E0040000 CID B105900D PID 002BB923 TPIU-Lite
T0654 4069:210.244   CPU_ReadMem(32 bytes @ 0xE0041FE0)
T0654 4069:212.720   [0][5]: E0041000 CID B105900D PID 002BB924 ETM-M3
T0654 4069:212.771   pIdData->ScanLen=4
T0654 4069:212.791   
T0654 4069:212.804   pIdData->NumDevices=1
T0654 4069:212.822   
T0654 4069:212.836   pIdData->aId[0]=0x4BA00477
T0654 4069:212.865   
T0654 4069:212.876   pIdData->aIrRead[0]=0
T0654 4069:212.900   
T0654 4069:212.917   pIdData->aScanLen[0]=0
T0654 4069:212.941   
T0654 4069:212.958   pIdData->aScanRead[0]=0
T0654 4069:212.982   
T0654 4069:212.998 - 58.009ms
T0654 4069:213.042 JLINK_JTAG_GetDeviceID(DeviceIndex = 0)
T0654 4069:213.061 - 0.027ms returns 1268778103
T0654 4069:213.090 JLINK_JTAG_GetDeviceInfo(DeviceIndex = 0)
T0654 4069:213.106 - 0.024ms returns 0
T0654 4069:213.134 JLINK_GetDLLVersion()
T0654 4069:213.149 - 0.023ms returns 75601
T0654 4069:213.177 JLINK_CORE_GetFound()
T0654 4069:213.194 - 0.024ms returns 0x30000FF
T0654 4069:213.221 JLINK_GetDebugInfo(0x100 = JLINKARM_ROM_TABLE_ADDR_INDEX)
T0654 4069:213.240   Value=0xE00FF000
T0654 4069:213.262 - 0.048ms returns 0
T0654 4069:215.474 JLINK_GetDebugInfo(0x100 = JLINKARM_ROM_TABLE_ADDR_INDEX)
T0654 4069:215.515   Value=0xE00FF000
T0654 4069:215.532 - 0.064ms returns 0
T0654 4069:215.549 JLINK_GetDebugInfo(0x101 = JLINKARM_DEBUG_INFO_ETM_ADDR_INDEX)
T0654 4069:215.562   Value=0xE0041000
T0654 4069:215.579 - 0.035ms returns 0
T0654 4069:215.605 JLINK_ReadMemEx(0xE0041FD0, 0x20 Bytes, Flags = 0x02000004)
T0654 4069:215.635   CPU_ReadMem(32 bytes @ 0xE0041FD0)
T0654 4069:216.152   Data:  04 00 00 00 00 00 00 00 00 00 00 00 00 00 00 00 ...
T0654 4069:216.185 - 0.586ms returns 32 (0x20)
T0654 4069:216.207 JLINK_GetDebugInfo(0x102 = JLINKARM_DEBUG_INFO_MTB_ADDR_INDEX)
T0654 4069:216.221   Value=0x00000000
T0654 4069:216.238 - 0.036ms returns 0
T0654 4069:216.254 JLINK_GetDebugInfo(0x103 = JLINKARM_DEBUG_INFO_TPIU_ADDR_INDEX)
T0654 4069:216.266   Value=0xE0040000
T0654 4069:216.283 - 0.035ms returns 0
T0654 4069:216.299 JLINK_GetDebugInfo(0x104 = JLINKARM_DEBUG_INFO_ITM_ADDR_INDEX)
T0654 4069:216.311   Value=0xE0000000
T0654 4069:216.328 - 0.034ms returns 0
T0654 4069:216.343 JLINK_GetDebugInfo(0x105 = JLINKARM_DEBUG_INFO_DWT_ADDR_INDEX)
T0654 4069:216.355   Value=0xE0001000
T0654 4069:216.372 - 0.034ms returns 0
T0654 4069:216.387 JLINK_GetDebugInfo(0x106 = JLINKARM_DEBUG_INFO_FPB_ADDR_INDEX)
T0654 4069:216.399   Value=0xE0002000
T0654 4069:216.416 - 0.034ms returns 0
T0654 4069:216.431 JLINK_GetDebugInfo(0x107 = JLINKARM_DEBUG_INFO_NVIC_ADDR_INDEX)
T0654 4069:216.443   Value=0xE000E000
T0654 4069:216.460 - 0.034ms returns 0
T0654 4069:216.475 JLINK_GetDebugInfo(0x10C = JLINKARM_DEBUG_INFO_DBG_ADDR_INDEX)
T0654 4069:216.487   Value=0xE000EDF0
T0654 4069:216.504 - 0.034ms returns 0
T0654 4069:216.519 JLINK_GetDebugInfo(0x01 = Unknown)
T0654 4069:216.532   Value=0x00000000
T0654 4069:216.548 - 0.034ms returns 0
T0654 4069:216.567 JLINK_ReadMemU32(0xE000ED00, 0x1 Items)
T0654 4069:216.587   CPU_ReadMem(4 bytes @ 0xE000ED00)
T0654 4069:217.080   Data:  30 C2 2F 41
T0654 4069:217.106   Debug reg: CPUID
T0654 4069:217.124 - 0.562ms returns 1 (0x1)
T0654 4069:217.145 JLINK_GetDebugInfo(0x10F = JLINKARM_DEBUG_INFO_HAS_CORTEX_M_SECURITY_EXT_INDEX)
T0654 4069:217.165   Value=0x00000000
T0654 4069:217.200 - 0.062ms returns 0
T0654 4069:217.220 JLINK_HasError()
T0654 4069:217.250 JLINK_SetResetType(JLINKARM_CM3_RESET_TYPE_NORMAL)
T0654 4069:217.262 - 0.018ms returns ???
T0654 4069:217.280 JLINK_Reset()
T0654 4069:217.299   CPU is running
T0654 4069:217.318   CPU_WriteMem(4 bytes @ 0xE000EDF0)
T0654 4069:217.765   CPU is running
T0654 4069:217.793   CPU_WriteMem(4 bytes @ 0xE000EDFC)
T0654 4069:220.161   Reset: Halt core after reset via DEMCR.VC_CORERESET.
T0654 4069:221.897   Reset: Reset device via AIRCR.SYSRESETREQ.
T0654 4069:221.929   CPU is running
T0654 4069:221.952   CPU_WriteMem(4 bytes @ 0xE000ED0C)
T0654 4069:275.048   CPU_ReadMem(4 bytes @ 0xE000EDF0)
T0654 4069:275.465   CPU_ReadMem(4 bytes @ 0xE000EDF0)
T0654 4069:275.795   CPU is running
T0654 4069:275.828   CPU_WriteMem(4 bytes @ 0xE000EDF0)
T0654 4069:276.142   CPU is running
T0654 4069:276.182   CPU_WriteMem(4 bytes @ 0xE000EDFC)
T0654 4069:282.023   CPU_ReadMem(4 bytes @ 0xE000EDF0)
T0654 4069:284.917   CPU_WriteMem(4 bytes @ 0xE000EDFC)
T0654 4069:285.324   CPU_WriteMem(4 bytes @ 0xE0001028)
T0654 4069:285.612   CPU_WriteMem(4 bytes @ 0xE0001038)
T0654 4069:285.967   CPU_WriteMem(4 bytes @ 0xE0001048)
T0654 4069:286.324   CPU_WriteMem(4 bytes @ 0xE0001058)
T0654 4069:286.678   CPU_WriteMem(4 bytes @ 0xE000EDFC)
T0654 4069:286.973   CPU_WriteMem(4 bytes @ 0xE000EDFC)
T0654 4069:287.310   CPU_WriteMem(4 bytes @ 0xE000EDFC)
T0654 4069:287.609   CPU_WriteMem(4 bytes @ 0xE000EDFC)
T0654 4069:287.933   CPU_WriteMem(4 bytes @ 0xE000EDFC)
T0654 4069:288.247   CPU_WriteMem(4 bytes @ 0xE0001050)
T0654 4069:288.584   CPU_WriteMem(4 bytes @ 0xE0001054)
T0654 4069:288.917   CPU_WriteMem(4 bytes @ 0xE0001058)
T0654 4069:289.457   CPU_ReadMem(4 bytes @ 0xE0001000)
T0654 4069:393.836   CPU_WriteMem(4 bytes @ 0xE000EDFC)
T0654 4069:394.322   CPU_WriteMem(4 bytes @ 0xE0001058)
T0654 4069:394.805   CPU_ReadMem(4 bytes @ 0x00000004)
T0654 4069:395.343   CPU_ReadMem(4 bytes @ 0xE0002000)
T0654 4069:395.793   CPU_ReadMem(4 bytes @ 0xE0002008)
T0654 4069:396.209   CPU_ReadMem(4 bytes @ 0xE000200C)
T0654 4069:396.688   CPU_ReadMem(4 bytes @ 0xE0002010)
T0654 4069:397.244   CPU_ReadMem(4 bytes @ 0xE0002014)
T0654 4069:397.710   CPU_ReadMem(4 bytes @ 0xE0002018)
T0654 4069:398.166   CPU_ReadMem(4 bytes @ 0xE000201C)
T0654 4069:398.571   CPU_WriteMem(4 bytes @ 0xE0002000)
T0654 4069:398.919   CPU_WriteMem(4 bytes @ 0xE0002008)
T0654 4069:399.223   CPU_WriteMem(4 bytes @ 0xE000200C)
T0654 4069:399.536   CPU_WriteMem(4 bytes @ 0xE0002010)
T0654 4069:399.931   CPU_WriteMem(4 bytes @ 0xE0002014)
T0654 4069:400.306   CPU_WriteMem(4 bytes @ 0xE0002018)
T0654 4069:400.680   CPU_WriteMem(4 bytes @ 0xE000201C)
T0654 4069:401.062   CPU_ReadMem(4 bytes @ 0xE0001000)
T0654 4069:505.540   CPU_ReadMem(4 bytes @ 0x400FC040)
T0654 4069:505.972   CPU_WriteMem(4 bytes @ 0xE0002000)
T0654 4069:506.390   CPU_WriteMem(4 bytes @ 0xE0002008)
T0654 4069:506.763   CPU_WriteMem(4 bytes @ 0xE000200C)
T0654 4069:507.118   CPU_WriteMem(4 bytes @ 0xE0002010)
T0654 4069:507.450   CPU_WriteMem(4 bytes @ 0xE0002014)
T0654 4069:507.782   CPU_WriteMem(4 bytes @ 0xE0002018)
T0654 4069:508.105   CPU_WriteMem(4 bytes @ 0xE000201C)
T0654 4069:508.396   CPU_WriteMem(4 bytes @ 0xE0002000)
T0654 4069:508.730   CPU_ReadMem(4 bytes @ 0xE000EDFC)
T0654 4069:509.096   CPU_ReadMem(4 bytes @ 0xE0001000)
T0654 4069:509.610 - 292.342ms
T0654 4069:509.753 JLINK_Halt()
T0654 4069:509.772 - 0.026ms returns 0x00
T0654 4069:509.794 JLINK_ReadMemU32(0xE000EDF0, 0x1 Items)
T0654 4069:509.817   CPU_ReadMem(4 bytes @ 0xE000EDF0)
T0654 4069:510.136   Data:  03 00 03 00
T0654 4069:510.162   Debug reg: DHCSR
T0654 4069:510.179 - 0.392ms returns 1 (0x1)
T0654 4069:510.207 JLINK_WriteU32_64(0xE000EDF0, 0xA05F0003)
T0654 4069:510.221   Debug reg: DHCSR
T0654 4069:510.815   CPU_WriteMem(4 bytes @ 0xE000EDF0)
T0654 4069:511.166 - 0.971ms returns 0 (0x00000000)
T0654 4069:511.194 JLINK_WriteU32_64(0xE000EDFC, 0x01000000)
T0654 4069:511.208   Debug reg: DEMCR
T0654 4069:511.232   CPU_WriteMem(4 bytes @ 0xE000EDFC)
T0654 4069:511.561 - 0.378ms returns 0 (0x00000000)
T0654 4069:520.612 JLINK_GetHWStatus(...)
T0654 4069:520.873 - 0.278ms returns 0
T0654 4069:527.002 JLINK_GetNumBPUnits(Type = 0xFFFFFF00)
T0654 4069:527.039 - 0.043ms returns 0x06
T0654 4069:527.057 JLINK_GetNumBPUnits(Type = 0xF0)
T0654 4069:527.069 - 0.018ms returns 0x2000
T0654 4069:527.087 JLINK_GetNumWPUnits()
T0654 4069:527.098 - 0.017ms returns 4
T0654 4069:534.221 JLINK_GetSpeed()
T0654 4069:534.255 - 0.040ms returns 5000
T0654 4069:537.920 JLINK_ReadMemU32(0xE000E004, 0x1 Items)
T0654 4069:537.961   CPU_ReadMem(4 bytes @ 0xE000E004)
T0654 4069:538.482   Data:  01 00 00 00
T0654 4069:538.511 - 0.597ms returns 1 (0x1)
T0654 4069:538.533 JLINK_ReadMemU32(0xE000E004, 0x1 Items)
T0654 4069:538.553   CPU_ReadMem(4 bytes @ 0xE000E004)
T0654 4069:539.065   Data:  01 00 00 00
T0654 4069:539.091 - 0.564ms returns 1 (0x1)
T0654 4069:539.119 JLINK_WriteMemEx(0xE0001000, 0x0000001C Bytes, Flags = 0x02000004)
T0654 4069:539.133   Data:  01 00 00 00 00 00 00 00 00 00 00 00 00 00 00 00 ...
T0654 4069:539.162   CPU_WriteMem(28 bytes @ 0xE0001000)
T0654 4069:539.756 - 0.652ms returns 0x1C
T0654 4069:539.802 JLINK_Halt()
T0654 4069:539.815 - 0.019ms returns 0x00
T0654 4069:539.836 JLINK_IsHalted()
T0654 4069:539.852   CPU_ReadMem(4 bytes @ 0x400FC040)
T0654 4069:540.338 - 0.515ms returns TRUE
T0654 4069:545.226 JLINK_WriteMem(0x10000000, 0x17C Bytes, ...)
T0654 4069:545.251   Data:  00 BE 0A E0 0D 78 2D 06 68 40 08 24 40 00 00 D3 ...
T0654 4069:545.689   CPU_WriteMem(380 bytes @ 0x10000000)
T0654 4069:548.346 - 3.181ms returns 0x17C
T0654 4069:548.477 JLINK_HasError()
T0654 4069:548.504 JLINK_WriteReg(R0, 0x00000000)
T0654 4069:548.523 - 0.024ms returns 0
T0654 4069:548.540 JLINK_WriteReg(R1, 0x00B71B00)
T0654 4069:548.552 - 0.018ms returns 0
T0654 4069:548.569 JLINK_WriteReg(R2, 0x00000001)
T0654 4069:548.581 - 0.018ms returns 0
T0654 4069:548.597 JLINK_WriteReg(R3, 0x00000000)
T0654 4069:548.610 - 0.018ms returns 0
T0654 4069:548.626 JLINK_WriteReg(R4, 0x00000000)
T0654 4069:548.639 - 0.018ms returns 0
T0654 4069:548.655 JLINK_WriteReg(R5, 0x00000000)
T0654 4069:548.667 - 0.018ms returns 0
T0654 4069:548.683 JLINK_WriteReg(R6, 0x00000000)
T0654 4069:548.695 - 0.018ms returns 0
T0654 4069:548.712 JLINK_WriteReg(R7, 0x00000000)
T0654 4069:548.724 - 0.018ms returns 0
T0654 4069:548.740 JLINK_WriteReg(R8, 0x00000000)
T0654 4069:548.753 - 0.018ms returns 0
T0654 4069:548.769 JLINK_WriteReg(R9, 0x10000174)
T0654 4069:548.781 - 0.018ms returns 0
T0654 4069:548.797 JLINK_WriteReg(R10, 0x00000000)
T0654 4069:548.809 - 0.018ms returns 0
T0654 4069:548.825 JLINK_WriteReg(R11, 0x00000000)
T0654 4069:548.838 - 0.018ms returns 0
T0654 4069:548.854 JLINK_WriteReg(R12, 0x00000000)
T0654 4069:548.866 - 0.018ms returns 0
T0654 4069:548.882 JLINK_WriteReg(R13 (SP), 0x10000800)
T0654 4069:548.895 - 0.019ms returns 0
T0654 4069:548.911 JLINK_WriteReg(R14, 0x10000001)
T0654 4069:548.924 - 0.018ms returns 0
T0654 4069:548.940 JLINK_WriteReg(R15 (PC), 0x10000046)
T0654 4069:548.954 - 0.022ms returns 0
T0654 4069:548.972 JLINK_WriteReg(XPSR, 0x01000000)
T0654 4069:548.985 - 0.018ms returns 0
T0654 4069:549.001 JLINK_WriteReg(MSP, 0x10000800)
T0654 4069:549.014 - 0.018ms returns 0
T0654 4069:549.030 JLINK_WriteReg(PSP, 0x10000800)
T0654 4069:549.042 - 0.018ms returns 0
T0654 4069:549.058 JLINK_WriteReg(CFBP, 0x00000000)
T0654 4069:549.074 - 0.023ms returns 0
T0654 4069:549.098 JLINK_SetBPEx(Addr = 0x10000000, Type = 0xFFFFFFF2)
T0654 4069:549.127 - 0.042ms returns 0x00000001
T0654 4069:549.161 JLINK_Go()
T0654 4069:549.212   CPU_ReadMem(4 bytes @ 0xE0001000)
T0654 4069:549.711   CPU_WriteMem(4 bytes @ 0xE0002008)
T0654 4069:549.743   CPU_WriteMem(4 bytes @ 0xE000200C)
T0654 4069:549.761   CPU_WriteMem(4 bytes @ 0xE0002010)
T0654 4069:549.779   CPU_WriteMem(4 bytes @ 0xE0002014)
T0654 4069:549.797   CPU_WriteMem(4 bytes @ 0xE0002018)
T0654 4069:549.815   CPU_WriteMem(4 bytes @ 0xE000201C)
T0654 4069:551.005   CPU_WriteMem(4 bytes @ 0xE0001004)
T0654 4069:554.824 - 5.688ms
T0654 4069:554.868 JLINK_IsHalted()
T0654 4069:557.621 - 2.779ms returns TRUE
T0654 4069:557.671 JLINK_ReadReg(R15 (PC))
T0654 4069:557.688 - 0.023ms returns 0x10000000
T0654 4069:557.707 JLINK_ClrBPEx(BPHandle = 0x00000001)
T0654 4069:557.720 - 0.019ms returns 0x00
T0654 4069:557.736 JLINK_ReadReg(R0)
T0654 4069:557.759 - 0.029ms returns 0x00000000
T0654 4069:558.368 JLINK_HasError()
T0654 4069:558.402 JLINK_WriteReg(R0, 0x00000000)
T0654 4069:558.417 - 0.022ms returns 0
T0654 4069:558.434 JLINK_WriteReg(R1, 0x00001000)
T0654 4069:558.446 - 0.018ms returns 0
T0654 4069:558.462 JLINK_WriteReg(R2, 0x000000FF)
T0654 4069:558.475 - 0.018ms returns 0
T0654 4069:558.490 JLINK_WriteReg(R3, 0x00000000)
T0654 4069:558.502 - 0.017ms returns 0
T0654 4069:558.518 JLINK_WriteReg(R4, 0x00000000)
T0654 4069:558.530 - 0.017ms returns 0
T0654 4069:558.546 JLINK_WriteReg(R5, 0x00000000)
T0654 4069:558.558 - 0.017ms returns 0
T0654 4069:558.573 JLINK_WriteReg(R6, 0x00000000)
T0654 4069:558.585 - 0.017ms returns 0
T0654 4069:558.601 JLINK_WriteReg(R7, 0x00000000)
T0654 4069:558.613 - 0.017ms returns 0
T0654 4069:558.629 JLINK_WriteReg(R8, 0x00000000)
T0654 4069:558.641 - 0.018ms returns 0
T0654 4069:558.657 JLINK_WriteReg(R9, 0x10000174)
T0654 4069:558.668 - 0.017ms returns 0
T0654 4069:558.684 JLINK_WriteReg(R10, 0x00000000)
T0654 4069:558.696 - 0.018ms returns 0
T0654 4069:558.712 JLINK_WriteReg(R11, 0x00000000)
T0654 4069:558.724 - 0.017ms returns 0
T0654 4069:558.740 JLINK_WriteReg(R12, 0x00000000)
T0654 4069:558.752 - 0.017ms returns 0
T0654 4069:558.767 JLINK_WriteReg(R13 (SP), 0x10000800)
T0654 4069:558.780 - 0.018ms returns 0
T0654 4069:558.796 JLINK_WriteReg(R14, 0x10000001)
T0654 4069:558.808 - 0.018ms returns 0
T0654 4069:558.824 JLINK_WriteReg(R15 (PC), 0x10000020)
T0654 4069:558.836 - 0.018ms returns 0
T0654 4069:558.852 JLINK_WriteReg(XPSR, 0x01000000)
T0654 4069:558.864 - 0.018ms returns 0
T0654 4069:558.880 JLINK_WriteReg(MSP, 0x10000800)
T0654 4069:558.892 - 0.018ms returns 0
T0654 4069:558.908 JLINK_WriteReg(PSP, 0x10000800)
T0654 4069:558.920 - 0.018ms returns 0
T0654 4069:558.936 JLINK_WriteReg(CFBP, 0x00000000)
T0654 4069:558.948 - 0.017ms returns 0
T0654 4069:558.964 JLINK_SetBPEx(Addr = 0x10000000, Type = 0xFFFFFFF2)
T0654 4069:558.978 - 0.020ms returns 0x00000002
T0654 4069:558.994 JLINK_Go()
T0654 4069:559.020   CPU_ReadMem(4 bytes @ 0xE0001000)
T0654 4069:562.770 - 3.836ms
T0654 4069:562.862 JLINK_IsHalted()
T0654 4069:565.553 - 2.720ms returns TRUE
T0654 4069:565.611 JLINK_ReadReg(R15 (PC))
T0654 4069:565.633 - 0.031ms returns 0x10000000
T0654 4069:565.661 JLINK_ClrBPEx(BPHandle = 0x00000002)
T0654 4069:565.679 - 0.024ms returns 0x00
T0654 4069:565.702 JLINK_ReadReg(R0)
T0654 4069:565.717 - 0.022ms returns 0x00000001
T0654 4069:565.738 JLINK_HasError()
T0654 4069:565.756 JLINK_WriteReg(R0, 0x00000000)
T0654 4069:565.772 - 0.022ms returns 0
T0654 4069:565.793 JLINK_WriteReg(R1, 0x00001000)
T0654 4069:565.806 - 0.019ms returns 0
T0654 4069:565.822 JLINK_WriteReg(R2, 0x000000FF)
T0654 4069:565.836 - 0.020ms returns 0
T0654 4069:565.855 JLINK_WriteReg(R3, 0x00000000)
T0654 4069:565.868 - 0.018ms returns 0
T0654 4069:565.884 JLINK_WriteReg(R4, 0x00000000)
T0654 4069:565.898 - 0.020ms returns 0
T0654 4069:565.918 JLINK_WriteReg(R5, 0x00000000)
T0654 4069:565.931 - 0.019ms returns 0
T0654 4069:565.947 JLINK_WriteReg(R6, 0x00000000)
T0654 4069:565.960 - 0.019ms returns 0
T0654 4069:565.980 JLINK_WriteReg(R7, 0x00000000)
T0654 4069:565.992 - 0.018ms returns 0
T0654 4069:566.009 JLINK_WriteReg(R8, 0x00000000)
T0654 4069:566.022 - 0.019ms returns 0
T0654 4069:566.041 JLINK_WriteReg(R9, 0x10000174)
T0654 4069:566.055 - 0.019ms returns 0
T0654 4069:566.071 JLINK_WriteReg(R10, 0x00000000)
T0654 4069:566.084 - 0.019ms returns 0
T0654 4069:566.104 JLINK_WriteReg(R11, 0x00000000)
T0654 4069:566.177 - 0.088ms returns 0
T0654 4069:566.222 JLINK_WriteReg(R12, 0x00000000)
T0654 4069:566.258 - 0.064ms returns 0
T0654 4069:566.324 JLINK_WriteReg(R13 (SP), 0x10000800)
T0654 4069:566.354 - 0.043ms returns 0
T0654 4069:566.397 JLINK_WriteReg(R14, 0x10000001)
T0654 4069:566.423 - 0.044ms returns 0
T0654 4069:566.461 JLINK_WriteReg(R15 (PC), 0x100000AE)
T0654 4069:566.476 - 0.023ms returns 0
T0654 4069:566.515 JLINK_WriteReg(XPSR, 0x01000000)
T0654 4069:566.547 - 0.044ms returns 0
T0654 4069:566.578 JLINK_WriteReg(MSP, 0x10000800)
T0654 4069:566.599 - 0.032ms returns 0
T0654 4069:566.638 JLINK_WriteReg(PSP, 0x10000800)
T0654 4069:566.661 - 0.030ms returns 0
T0654 4069:566.682 JLINK_WriteReg(CFBP, 0x00000000)
T0654 4069:566.695 - 0.018ms returns 0
T0654 4069:566.711 JLINK_SetBPEx(Addr = 0x10000000, Type = 0xFFFFFFF2)
T0654 4069:566.727 - 0.022ms returns 0x00000003
T0654 4069:566.746 JLINK_Go()
T0654 4069:566.772   CPU_ReadMem(4 bytes @ 0xE0001000)
T0654 4069:569.638 - 2.908ms
T0654 4069:569.676 JLINK_IsHalted()
T0654 4069:570.064 - 0.404ms returns FALSE
T0654 4069:570.102 JLINK_HasError()
T0654 4069:920.291 JLINK_IsHalted()
T0654 4069:923.262 - 2.997ms returns TRUE
T0654 4069:923.306 JLINK_ReadReg(R15 (PC))
T0654 4069:923.323 - 0.023ms returns 0x10000000
T0654 4069:923.340 JLINK_ClrBPEx(BPHandle = 0x00000003)
T0654 4069:923.354 - 0.019ms returns 0x00
T0654 4069:923.370 JLINK_ReadReg(R0)
T0654 4069:923.382 - 0.018ms returns 0x00000000
T0654 4069:924.443 JLINK_HasError()
T0654 4069:924.478 JLINK_WriteReg(R0, 0x00001000)
T0654 4069:924.495 - 0.023ms returns 0
T0654 4069:924.512 JLINK_WriteReg(R1, 0x00001000)
T0654 4069:924.524 - 0.018ms returns 0
T0654 4069:924.540 JLINK_WriteReg(R2, 0x000000FF)
T0654 4069:924.552 - 0.018ms returns 0
T0654 4069:924.568 JLINK_WriteReg(R3, 0x00000000)
T0654 4069:924.580 - 0.017ms returns 0
T0654 4069:924.595 JLINK_WriteReg(R4, 0x00000000)
T0654 4069:924.607 - 0.017ms returns 0
T0654 4069:924.623 JLINK_WriteReg(R5, 0x00000000)
T0654 4069:924.635 - 0.017ms returns 0
T0654 4069:924.651 JLINK_WriteReg(R6, 0x00000000)
T0654 4069:924.663 - 0.018ms returns 0
T0654 4069:924.679 JLINK_WriteReg(R7, 0x00000000)
T0654 4069:924.691 - 0.017ms returns 0
T0654 4069:924.707 JLINK_WriteReg(R8, 0x00000000)
T0654 4069:924.719 - 0.018ms returns 0
T0654 4069:924.735 JLINK_WriteReg(R9, 0x10000174)
T0654 4069:924.747 - 0.017ms returns 0
T0654 4069:924.762 JLINK_WriteReg(R10, 0x00000000)
T0654 4069:924.775 - 0.018ms returns 0
T0654 4069:924.790 JLINK_WriteReg(R11, 0x00000000)
T0654 4069:924.802 - 0.018ms returns 0
T0654 4069:924.818 JLINK_WriteReg(R12, 0x00000000)
T0654 4069:924.830 - 0.018ms returns 0
T0654 4069:924.846 JLINK_WriteReg(R13 (SP), 0x10000800)
T0654 4069:924.859 - 0.019ms returns 0
T0654 4069:924.875 JLINK_WriteReg(R14, 0x10000001)
T0654 4069:924.887 - 0.018ms returns 0
T0654 4069:924.903 JLINK_WriteReg(R15 (PC), 0x10000020)
T0654 4069:924.915 - 0.018ms returns 0
T0654 4069:924.931 JLINK_WriteReg(XPSR, 0x01000000)
T0654 4069:924.943 - 0.018ms returns 0
T0654 4069:925.008 JLINK_WriteReg(MSP, 0x10000800)
T0654 4069:925.022 - 0.019ms returns 0
T0654 4069:925.038 JLINK_WriteReg(PSP, 0x10000800)
T0654 4069:925.050 - 0.017ms returns 0
T0654 4069:925.065 JLINK_WriteReg(CFBP, 0x00000000)
T0654 4069:925.077 - 0.017ms returns 0
T0654 4069:925.095 JLINK_SetBPEx(Addr = 0x10000000, Type = 0xFFFFFFF2)
T0654 4069:925.123 - 0.037ms returns 0x00000004
T0654 4069:925.148 JLINK_Go()
T0654 4069:925.185   CPU_ReadMem(4 bytes @ 0xE0001000)
T0654 4069:928.450 - 3.326ms
T0654 4069:928.493 JLINK_IsHalted()
T0654 4069:931.335 - 2.868ms returns TRUE
T0654 4069:931.379 JLINK_ReadReg(R15 (PC))
T0654 4069:931.395 - 0.023ms returns 0x10000000
T0654 4069:931.413 JLINK_ClrBPEx(BPHandle = 0x00000004)
T0654 4069:931.426 - 0.019ms returns 0x00
T0654 4069:931.442 JLINK_ReadReg(R0)
T0654 4069:931.455 - 0.018ms returns 0x00000001
T0654 4069:931.472 JLINK_HasError()
T0654 4069:931.489 JLINK_WriteReg(R0, 0x00001000)
T0654 4069:931.503 - 0.019ms returns 0
T0654 4069:931.519 JLINK_WriteReg(R1, 0x00001000)
T0654 4069:931.531 - 0.018ms returns 0
T0654 4069:931.552 JLINK_WriteReg(R2, 0x000000FF)
T0654 4069:931.569 - 0.023ms returns 0
T0654 4069:931.585 JLINK_WriteReg(R3, 0x00000000)
T0654 4069:931.597 - 0.018ms returns 0
T0654 4069:931.613 JLINK_WriteReg(R4, 0x00000000)
T0654 4069:931.625 - 0.018ms returns 0
T0654 4069:931.641 JLINK_WriteReg(R5, 0x00000000)
T0654 4069:931.653 - 0.018ms returns 0
T0654 4069:931.670 JLINK_WriteReg(R6, 0x00000000)
T0654 4069:931.682 - 0.018ms returns 0
T0654 4069:931.698 JLINK_WriteReg(R7, 0x00000000)
T0654 4069:931.710 - 0.018ms returns 0
T0654 4069:931.726 JLINK_WriteReg(R8, 0x00000000)
T0654 4069:931.738 - 0.018ms returns 0
T0654 4069:931.754 JLINK_WriteReg(R9, 0x10000174)
T0654 4069:931.766 - 0.017ms returns 0
T0654 4069:931.781 JLINK_WriteReg(R10, 0x00000000)
T0654 4069:931.793 - 0.018ms returns 0
T0654 4069:931.809 JLINK_WriteReg(R11, 0x00000000)
T0654 4069:931.821 - 0.017ms returns 0
T0654 4069:931.837 JLINK_WriteReg(R12, 0x00000000)
T0654 4069:931.849 - 0.018ms returns 0
T0654 4069:931.865 JLINK_WriteReg(R13 (SP), 0x10000800)
T0654 4069:931.878 - 0.018ms returns 0
T0654 4069:931.893 JLINK_WriteReg(R14, 0x10000001)
T0654 4069:931.906 - 0.018ms returns 0
T0654 4069:931.922 JLINK_WriteReg(R15 (PC), 0x100000AE)
T0654 4069:931.934 - 0.018ms returns 0
T0654 4069:931.950 JLINK_WriteReg(XPSR, 0x01000000)
T0654 4069:931.962 - 0.018ms returns 0
T0654 4069:931.978 JLINK_WriteReg(MSP, 0x10000800)
T0654 4069:931.990 - 0.017ms returns 0
T0654 4069:932.005 JLINK_WriteReg(PSP, 0x10000800)
T0654 4069:932.017 - 0.017ms returns 0
T0654 4069:932.033 JLINK_WriteReg(CFBP, 0x00000000)
T0654 4069:932.045 - 0.018ms returns 0
T0654 4069:932.061 JLINK_SetBPEx(Addr = 0x10000000, Type = 0xFFFFFFF2)
T0654 4069:932.075 - 0.020ms returns 0x00000005
T0654 4069:932.092 JLINK_Go()
T0654 4069:932.117   CPU_ReadMem(4 bytes @ 0xE0001000)
T0654 4069:935.405 - 3.337ms
T0654 4069:935.453 JLINK_IsHalted()
T0654 4069:935.908 - 0.474ms returns FALSE
T0654 4069:935.951 JLINK_HasError()
T0654 4070:158.682 JLINK_IsHalted()
T0654 4070:161.554 - 2.911ms returns TRUE
T0654 4070:161.630 JLINK_ReadReg(R15 (PC))
T0654 4070:161.665 - 0.050ms returns 0x10000000
T0654 4070:161.695 JLINK_ClrBPEx(BPHandle = 0x00000005)
T0654 4070:161.709 - 0.019ms returns 0x00
T0654 4070:161.725 JLINK_ReadReg(R0)
T0654 4070:161.738 - 0.018ms returns 0x00000000
T0654 4070:162.825 JLINK_HasError()
T0654 4070:162.875 JLINK_WriteReg(R0, 0x00002000)
T0654 4070:162.899 - 0.033ms returns 0
T0654 4070:162.924 JLINK_WriteReg(R1, 0x00001000)
T0654 4070:162.978 - 0.062ms returns 0
T0654 4070:163.003 JLINK_WriteReg(R2, 0x000000FF)
T0654 4070:163.020 - 0.025ms returns 0
T0654 4070:163.041 JLINK_WriteReg(R3, 0x00000000)
T0654 4070:163.059 - 0.026ms returns 0
T0654 4070:163.080 JLINK_WriteReg(R4, 0x00000000)
T0654 4070:163.097 - 0.024ms returns 0
T0654 4070:163.118 JLINK_WriteReg(R5, 0x00000000)
T0654 4070:163.135 - 0.025ms returns 0
T0654 4070:163.156 JLINK_WriteReg(R6, 0x00000000)
T0654 4070:163.174 - 0.025ms returns 0
T0654 4070:163.196 JLINK_WriteReg(R7, 0x00000000)
T0654 4070:163.214 - 0.025ms returns 0
T0654 4070:163.236 JLINK_WriteReg(R8, 0x00000000)
T0654 4070:163.254 - 0.027ms returns 0
T0654 4070:163.284 JLINK_WriteReg(R9, 0x10000174)
T0654 4070:163.302 - 0.025ms returns 0
T0654 4070:163.327 JLINK_WriteReg(R10, 0x00000000)
T0654 4070:163.359 - 0.053ms returns 0
T0654 4070:163.398 JLINK_WriteReg(R11, 0x00000000)
T0654 4070:163.419 - 0.029ms returns 0
T0654 4070:163.441 JLINK_WriteReg(R12, 0x00000000)
T0654 4070:163.455 - 0.019ms returns 0
T0654 4070:163.471 JLINK_WriteReg(R13 (SP), 0x10000800)
T0654 4070:163.484 - 0.019ms returns 0
T0654 4070:163.500 JLINK_WriteReg(R14, 0x10000001)
T0654 4070:163.513 - 0.020ms returns 0
T0654 4070:163.531 JLINK_WriteReg(R15 (PC), 0x10000020)
T0654 4070:163.544 - 0.018ms returns 0
T0654 4070:163.559 JLINK_WriteReg(XPSR, 0x01000000)
T0654 4070:163.572 - 0.018ms returns 0
T0654 4070:163.588 JLINK_WriteReg(MSP, 0x10000800)
T0654 4070:163.600 - 0.017ms returns 0
T0654 4070:163.615 JLINK_WriteReg(PSP, 0x10000800)
T0654 4070:163.634 - 0.028ms returns 0
T0654 4070:163.654 JLINK_WriteReg(CFBP, 0x00000000)
T0654 4070:163.666 - 0.018ms returns 0
T0654 4070:163.683 JLINK_SetBPEx(Addr = 0x10000000, Type = 0xFFFFFFF2)
T0654 4070:163.699 - 0.021ms returns 0x00000006
T0654 4070:163.715 JLINK_Go()
T0654 4070:163.741   CPU_ReadMem(4 bytes @ 0xE0001000)
T0654 4070:166.997 - 3.307ms
T0654 4070:167.041 JLINK_IsHalted()
T0654 4070:169.932 - 2.916ms returns TRUE
T0654 4070:169.982 JLINK_ReadReg(R15 (PC))
T0654 4070:169.999 - 0.024ms returns 0x10000000
T0654 4070:170.019 JLINK_ClrBPEx(BPHandle = 0x00000006)
T0654 4070:170.034 - 0.021ms returns 0x00
T0654 4070:170.054 JLINK_ReadReg(R0)
T0654 4070:170.067 - 0.019ms returns 0x00000001
T0654 4070:170.085 JLINK_HasError()
T0654 4070:170.106 JLINK_WriteReg(R0, 0x00002000)
T0654 4070:170.120 - 0.019ms returns 0
T0654 4070:170.136 JLINK_WriteReg(R1, 0x00001000)
T0654 4070:170.149 - 0.019ms returns 0
T0654 4070:170.168 JLINK_WriteReg(R2, 0x000000FF)
T0654 4070:170.181 - 0.018ms returns 0
T0654 4070:170.197 JLINK_WriteReg(R3, 0x00000000)
T0654 4070:170.210 - 0.018ms returns 0
T0654 4070:170.229 JLINK_WriteReg(R4, 0x00000000)
T0654 4070:170.241 - 0.018ms returns 0
T0654 4070:170.258 JLINK_WriteReg(R5, 0x00000000)
T0654 4070:170.270 - 0.018ms returns 0
T0654 4070:170.289 JLINK_WriteReg(R6, 0x00000000)
T0654 4070:170.302 - 0.019ms returns 0
T0654 4070:170.321 JLINK_WriteReg(R7, 0x00000000)
T0654 4070:170.334 - 0.018ms returns 0
T0654 4070:170.352 JLINK_WriteReg(R8, 0x00000000)
T0654 4070:170.365 - 0.018ms returns 0
T0654 4070:170.384 JLINK_WriteReg(R9, 0x10000174)
T0654 4070:170.397 - 0.018ms returns 0
T0654 4070:170.415 JLINK_WriteReg(R10, 0x00000000)
T0654 4070:170.427 - 0.018ms returns 0
T0654 4070:170.443 JLINK_WriteReg(R11, 0x00000000)
T0654 4070:170.456 - 0.018ms returns 0
T0654 4070:170.474 JLINK_WriteReg(R12, 0x00000000)
T0654 4070:170.487 - 0.018ms returns 0
T0654 4070:170.513 JLINK_WriteReg(R13 (SP), 0x10000800)
T0654 4070:170.548 - 0.046ms returns 0
T0654 4070:170.576 JLINK_WriteReg(R14, 0x10000001)
T0654 4070:170.590 - 0.020ms returns 0
T0654 4070:170.609 JLINK_WriteReg(R15 (PC), 0x100000AE)
T0654 4070:170.622 - 0.018ms returns 0
T0654 4070:170.642 JLINK_WriteReg(XPSR, 0x01000000)
T0654 4070:170.654 - 0.018ms returns 0
T0654 4070:170.673 JLINK_WriteReg(MSP, 0x10000800)
T0654 4070:170.685 - 0.018ms returns 0
T0654 4070:170.704 JLINK_WriteReg(PSP, 0x10000800)
T0654 4070:170.716 - 0.018ms returns 0
T0654 4070:170.735 JLINK_WriteReg(CFBP, 0x00000000)
T0654 4070:170.747 - 0.018ms returns 0
T0654 4070:170.766 JLINK_SetBPEx(Addr = 0x10000000, Type = 0xFFFFFFF2)
T0654 4070:170.781 - 0.021ms returns 0x00000007
T0654 4070:170.800 JLINK_Go()
T0654 4070:170.825   CPU_ReadMem(4 bytes @ 0xE0001000)
T0654 4070:173.480 - 2.697ms
T0654 4070:173.519 JLINK_IsHalted()
T0654 4070:173.837 - 0.331ms returns FALSE
T0654 4070:173.871 JLINK_HasError()
T0654 4070:195.575 JLINK_IsHalted()
T0654 4070:196.080 - 0.550ms returns FALSE
T0654 4070:196.148 JLINK_HasError()
T0654 4070:197.575 JLINK_IsHalted()
T0654 4070:198.072 - 0.517ms returns FALSE
T0654 4070:198.110 JLINK_HasError()
T0654 4070:199.566 JLINK_IsHalted()
T0654 4070:200.106 - 0.559ms returns FALSE
T0654 4070:200.144 JLINK_HasError()
T0654 4070:201.594 JLINK_IsHalted()
T0654 4070:202.135 - 0.561ms returns FALSE
T0654 4070:202.173 JLINK_HasError()
T0654 4070:203.554 JLINK_IsHalted()
T0654 4070:204.063 - 0.530ms returns FALSE
T0654 4070:204.102 JLINK_HasError()
T0654 4070:205.550 JLINK_IsHalted()
T0654 4070:206.096 - 0.566ms returns FALSE
T0654 4070:206.134 JLINK_HasError()
T0654 4070:207.565 JLINK_IsHalted()
T0654 4070:208.139 - 0.595ms returns FALSE
T0654 4070:208.180 JLINK_HasError()
T0654 4070:209.545 JLINK_IsHalted()
T0654 4070:210.056 - 0.531ms returns FALSE
T0654 4070:210.093 JLINK_HasError()
T0654 4070:211.512 JLINK_IsHalted()
T0654 4070:212.060 - 0.567ms returns FALSE
T0654 4070:212.097 JLINK_HasError()
T0654 4070:213.511 JLINK_IsHalted()
T0654 4070:213.946 - 0.530ms returns FALSE
T0654 4070:214.066 JLINK_HasError()
T0654 4070:215.521 JLINK_IsHalted()
T0654 4070:216.057 - 0.556ms returns FALSE
T0654 4070:216.096 JLINK_HasError()
T0654 4070:217.530 JLINK_IsHalted()
T0654 4070:217.998 - 0.488ms returns FALSE
T0654 4070:218.036 JLINK_HasError()
T0654 4070:219.512 JLINK_IsHalted()
T0654 4070:220.031 - 0.539ms returns FALSE
T0654 4070:220.068 JLINK_HasError()
T0654 4070:221.504 JLINK_IsHalted()
T0654 4070:222.001 - 0.517ms returns FALSE
T0654 4070:222.038 JLINK_HasError()
T0654 4070:223.503 JLINK_IsHalted()
T0654 4070:223.967 - 0.488ms returns FALSE
T0654 4070:224.011 JLINK_HasError()
T0654 4070:225.502 JLINK_IsHalted()
T0654 4070:225.999 - 0.517ms returns FALSE
T0654 4070:226.036 JLINK_HasError()
T0654 4070:227.490 JLINK_IsHalted()
T0654 4070:227.988 - 0.518ms returns FALSE
T0654 4070:228.026 JLINK_HasError()
T0654 4070:229.487 JLINK_IsHalted()
T0654 4070:230.026 - 0.559ms returns FALSE
T0654 4070:230.065 JLINK_HasError()
T0654 4070:231.477 JLINK_IsHalted()
T0654 4070:232.050 - 0.593ms returns FALSE
T0654 4070:232.088 JLINK_HasError()
T0654 4070:233.458 JLINK_IsHalted()
T0654 4070:234.006 - 0.567ms returns FALSE
T0654 4070:234.044 JLINK_HasError()
T0654 4070:235.477 JLINK_IsHalted()
T0654 4070:235.968 - 0.511ms returns FALSE
T0654 4070:236.007 JLINK_HasError()
T0654 4070:237.462 JLINK_IsHalted()
T0654 4070:237.976 - 0.534ms returns FALSE
T0654 4070:238.014 JLINK_HasError()
T0654 4070:239.482 JLINK_IsHalted()
T0654 4070:240.040 - 0.583ms returns FALSE
T0654 4070:240.085 JLINK_HasError()
T0654 4070:241.465 JLINK_IsHalted()
T0654 4070:241.941 - 0.495ms returns FALSE
T0654 4070:241.979 JLINK_HasError()
T0654 4070:243.447 JLINK_IsHalted()
T0654 4070:243.950 - 0.523ms returns FALSE
T0654 4070:243.988 JLINK_HasError()
T0654 4070:245.441 JLINK_IsHalted()
T0654 4070:245.951 - 0.529ms returns FALSE
T0654 4070:245.988 JLINK_HasError()
T0654 4070:247.444 JLINK_IsHalted()
T0654 4070:247.954 - 0.530ms returns FALSE
T0654 4070:247.993 JLINK_HasError()
T0654 4070:249.437 JLINK_IsHalted()
T0654 4070:249.947 - 0.530ms returns FALSE
T0654 4070:249.986 JLINK_HasError()
T0654 4070:251.433 JLINK_IsHalted()
T0654 4070:251.968 - 0.555ms returns FALSE
T0654 4070:252.006 JLINK_HasError()
T0654 4070:253.429 JLINK_IsHalted()
T0654 4070:253.951 - 0.541ms returns FALSE
T0654 4070:253.989 JLINK_HasError()
T0654 4070:255.308 JLINK_IsHalted()
T0654 4070:255.810 - 0.516ms returns FALSE
T0654 4070:255.839 JLINK_HasError()
T0654 4070:257.416 JLINK_IsHalted()
T0654 4070:257.947 - 0.550ms returns FALSE
T0654 4070:257.985 JLINK_HasError()
T0654 4070:259.411 JLINK_IsHalted()
T0654 4070:259.951 - 0.560ms returns FALSE
T0654 4070:259.990 JLINK_HasError()
T0654 4070:261.398 JLINK_IsHalted()
T0654 4070:261.967 - 0.589ms returns FALSE
T0654 4070:262.005 JLINK_HasError()
T0654 4070:263.393 JLINK_IsHalted()
T0654 4070:263.898 - 0.525ms returns FALSE
T0654 4070:263.936 JLINK_HasError()
T0654 4070:265.401 JLINK_IsHalted()
T0654 4070:265.933 - 0.552ms returns FALSE
T0654 4070:265.971 JLINK_HasError()
T0654 4070:267.384 JLINK_IsHalted()
T0654 4070:267.872 - 0.507ms returns FALSE
T0654 4070:267.909 JLINK_HasError()
T0654 4070:269.494 JLINK_IsHalted()
T0654 4070:270.083 - 0.612ms returns FALSE
T0654 4070:270.125 JLINK_HasError()
T0654 4070:278.464 JLINK_IsHalted()
T0654 4070:281.570 - 3.132ms returns TRUE
T0654 4070:281.614 JLINK_ReadReg(R15 (PC))
T0654 4070:281.630 - 0.022ms returns 0x10000000
T0654 4070:281.648 JLINK_ClrBPEx(BPHandle = 0x00000007)
T0654 4070:281.661 - 0.019ms returns 0x00
T0654 4070:281.677 JLINK_ReadReg(R0)
T0654 4070:281.690 - 0.018ms returns 0x00000000
T0654 4070:282.684 JLINK_HasError()
T0654 4070:282.718 JLINK_WriteReg(R0, 0x00003000)
T0654 4070:282.734 - 0.022ms returns 0
T0654 4070:282.751 JLINK_WriteReg(R1, 0x00001000)
T0654 4070:282.763 - 0.018ms returns 0
T0654 4070:282.779 JLINK_WriteReg(R2, 0x000000FF)
T0654 4070:282.791 - 0.018ms returns 0
T0654 4070:282.807 JLINK_WriteReg(R3, 0x00000000)
T0654 4070:282.825 - 0.028ms returns 0
T0654 4070:282.845 JLINK_WriteReg(R4, 0x00000000)
T0654 4070:282.858 - 0.017ms returns 0
T0654 4070:282.873 JLINK_WriteReg(R5, 0x00000000)
T0654 4070:282.885 - 0.017ms returns 0
T0654 4070:282.901 JLINK_WriteReg(R6, 0x00000000)
T0654 4070:282.914 - 0.018ms returns 0
T0654 4070:282.930 JLINK_WriteReg(R7, 0x00000000)
T0654 4070:282.941 - 0.017ms returns 0
T0654 4070:282.957 JLINK_WriteReg(R8, 0x00000000)
T0654 4070:282.969 - 0.017ms returns 0
T0654 4070:282.985 JLINK_WriteReg(R9, 0x10000174)
T0654 4070:282.997 - 0.017ms returns 0
T0654 4070:283.012 JLINK_WriteReg(R10, 0x00000000)
T0654 4070:283.025 - 0.018ms returns 0
T0654 4070:283.040 JLINK_WriteReg(R11, 0x00000000)
T0654 4070:283.052 - 0.017ms returns 0
T0654 4070:283.068 JLINK_WriteReg(R12, 0x00000000)
T0654 4070:283.080 - 0.017ms returns 0
T0654 4070:283.095 JLINK_WriteReg(R13 (SP), 0x10000800)
T0654 4070:283.108 - 0.018ms returns 0
T0654 4070:283.124 JLINK_WriteReg(R14, 0x10000001)
T0654 4070:283.136 - 0.017ms returns 0
T0654 4070:283.152 JLINK_WriteReg(R15 (PC), 0x10000020)
T0654 4070:283.164 - 0.018ms returns 0
T0654 4070:283.180 JLINK_WriteReg(XPSR, 0x01000000)
T0654 4070:283.192 - 0.018ms returns 0
T0654 4070:283.208 JLINK_WriteReg(MSP, 0x10000800)
T0654 4070:283.220 - 0.017ms returns 0
T0654 4070:283.236 JLINK_WriteReg(PSP, 0x10000800)
T0654 4070:283.247 - 0.017ms returns 0
T0654 4070:283.263 JLINK_WriteReg(CFBP, 0x00000000)
T0654 4070:283.275 - 0.018ms returns 0
T0654 4070:283.291 JLINK_SetBPEx(Addr = 0x10000000, Type = 0xFFFFFFF2)
T0654 4070:283.306 - 0.021ms returns 0x00000008
T0654 4070:283.323 JLINK_Go()
T0654 4070:283.348   CPU_ReadMem(4 bytes @ 0xE0001000)
T0654 4070:286.491 - 3.192ms
T0654 4070:286.535 JLINK_IsHalted()
T0654 4070:289.528 - 3.020ms returns TRUE
T0654 4070:289.574 JLINK_ReadReg(R15 (PC))
T0654 4070:289.591 - 0.022ms returns 0x10000000
T0654 4070:289.608 JLINK_ClrBPEx(BPHandle = 0x00000008)
T0654 4070:289.621 - 0.019ms returns 0x00
T0654 4070:289.637 JLINK_ReadReg(R0)
T0654 4070:289.650 - 0.018ms returns 0x00000001
T0654 4070:289.667 JLINK_HasError()
T0654 4070:289.684 JLINK_WriteReg(R0, 0x00003000)
T0654 4070:289.697 - 0.019ms returns 0
T0654 4070:289.714 JLINK_WriteReg(R1, 0x00001000)
T0654 4070:289.726 - 0.018ms returns 0
T0654 4070:289.742 JLINK_WriteReg(R2, 0x000000FF)
T0654 4070:289.754 - 0.017ms returns 0
T0654 4070:289.770 JLINK_WriteReg(R3, 0x00000000)
T0654 4070:289.782 - 0.018ms returns 0
T0654 4070:289.798 JLINK_WriteReg(R4, 0x00000000)
T0654 4070:289.810 - 0.017ms returns 0
T0654 4070:289.825 JLINK_WriteReg(R5, 0x00000000)
T0654 4070:289.837 - 0.017ms returns 0
T0654 4070:289.853 JLINK_WriteReg(R6, 0x00000000)
T0654 4070:289.865 - 0.017ms returns 0
T0654 4070:289.881 JLINK_WriteReg(R7, 0x00000000)
T0654 4070:289.893 - 0.017ms returns 0
T0654 4070:289.909 JLINK_WriteReg(R8, 0x00000000)
T0654 4070:289.921 - 0.017ms returns 0
T0654 4070:289.936 JLINK_WriteReg(R9, 0x10000174)
T0654 4070:289.948 - 0.017ms returns 0
T0654 4070:289.964 JLINK_WriteReg(R10, 0x00000000)
T0654 4070:289.976 - 0.018ms returns 0
T0654 4070:289.992 JLINK_WriteReg(R11, 0x00000000)
T0654 4070:290.004 - 0.017ms returns 0
T0654 4070:290.020 JLINK_WriteReg(R12, 0x00000000)
T0654 4070:290.032 - 0.017ms returns 0
T0654 4070:290.048 JLINK_WriteReg(R13 (SP), 0x10000800)
T0654 4070:290.060 - 0.018ms returns 0
T0654 4070:290.076 JLINK_WriteReg(R14, 0x10000001)
T0654 4070:290.088 - 0.017ms returns 0
T0654 4070:290.104 JLINK_WriteReg(R15 (PC), 0x100000AE)
T0654 4070:290.116 - 0.017ms returns 0
T0654 4070:290.132 JLINK_WriteReg(XPSR, 0x01000000)
T0654 4070:290.144 - 0.018ms returns 0
T0654 4070:290.160 JLINK_WriteReg(MSP, 0x10000800)
T0654 4070:290.172 - 0.017ms returns 0
T0654 4070:290.187 JLINK_WriteReg(PSP, 0x10000800)
T0654 4070:290.199 - 0.018ms returns 0
T0654 4070:290.215 JLINK_WriteReg(CFBP, 0x00000000)
T0654 4070:290.227 - 0.017ms returns 0
T0654 4070:290.243 JLINK_SetBPEx(Addr = 0x10000000, Type = 0xFFFFFFF2)
T0654 4070:290.257 - 0.020ms returns 0x00000009
T0654 4070:290.280 JLINK_Go()
T0654 4070:290.311   CPU_ReadMem(4 bytes @ 0xE0001000)
T0654 4070:293.386 - 3.131ms
T0654 4070:293.430 JLINK_IsHalted()
T0654 4070:293.940 - 0.530ms returns FALSE
T0654 4070:293.978 JLINK_HasError()
T0654 4070:302.690 JLINK_IsHalted()
T0654 4070:303.218 - 0.548ms returns FALSE
T0654 4070:303.256 JLINK_HasError()
T0654 4070:304.691 JLINK_IsHalted()
T0654 4070:305.229 - 0.557ms returns FALSE
T0654 4070:305.266 JLINK_HasError()
T0654 4070:306.682 JLINK_IsHalted()
T0654 4070:307.219 - 0.557ms returns FALSE
T0654 4070:307.257 JLINK_HasError()
T0654 4070:308.651 JLINK_IsHalted()
T0654 4070:309.206 - 0.575ms returns FALSE
T0654 4070:309.245 JLINK_HasError()
T0654 4070:310.666 JLINK_IsHalted()
T0654 4070:311.141 - 0.495ms returns FALSE
T0654 4070:311.179 JLINK_HasError()
T0654 4070:312.671 JLINK_IsHalted()
T0654 4070:313.140 - 0.498ms returns FALSE
T0654 4070:313.192 JLINK_HasError()
T0654 4070:314.541 JLINK_IsHalted()
T0654 4070:315.058 - 0.537ms returns FALSE
T0654 4070:315.096 JLINK_HasError()
T0654 4070:316.455 JLINK_IsHalted()
T0654 4070:316.966 - 0.525ms returns FALSE
T0654 4070:316.996 JLINK_HasError()
T0654 4070:318.645 JLINK_IsHalted()
T0654 4070:319.178 - 0.554ms returns FALSE
T0654 4070:319.217 JLINK_HasError()
T0654 4070:320.641 JLINK_IsHalted()
T0654 4070:321.161 - 0.540ms returns FALSE
T0654 4070:321.200 JLINK_HasError()
T0654 4070:322.636 JLINK_IsHalted()
T0654 4070:323.149 - 0.533ms returns FALSE
T0654 4070:323.187 JLINK_HasError()
T0654 4070:324.626 JLINK_IsHalted()
T0654 4070:325.129 - 0.522ms returns FALSE
T0654 4070:325.167 JLINK_HasError()
T0654 4070:326.630 JLINK_IsHalted()
T0654 4070:327.145 - 0.535ms returns FALSE
T0654 4070:327.183 JLINK_HasError()
T0654 4070:328.613 JLINK_IsHalted()
T0654 4070:329.164 - 0.570ms returns FALSE
T0654 4070:329.201 JLINK_HasError()
T0654 4070:330.597 JLINK_IsHalted()
T0654 4070:331.160 - 0.585ms returns FALSE
T0654 4070:331.201 JLINK_HasError()
T0654 4070:332.607 JLINK_IsHalted()
T0654 4070:333.100 - 0.513ms returns FALSE
T0654 4070:333.137 JLINK_HasError()
T0654 4070:334.611 JLINK_IsHalted()
T0654 4070:335.117 - 0.525ms returns FALSE
T0654 4070:335.153 JLINK_HasError()
T0654 4070:336.605 JLINK_IsHalted()
T0654 4070:337.143 - 0.557ms returns FALSE
T0654 4070:337.181 JLINK_HasError()
T0654 4070:338.587 JLINK_IsHalted()
T0654 4070:339.116 - 0.549ms returns FALSE
T0654 4070:339.155 JLINK_HasError()
T0654 4070:340.592 JLINK_IsHalted()
T0654 4070:341.058 - 0.485ms returns FALSE
T0654 4070:341.095 JLINK_HasError()
T0654 4070:342.583 JLINK_IsHalted()
T0654 4070:343.119 - 0.556ms returns FALSE
T0654 4070:343.158 JLINK_HasError()
T0654 4070:344.578 JLINK_IsHalted()
T0654 4070:345.098 - 0.540ms returns FALSE
T0654 4070:345.137 JLINK_HasError()
T0654 4070:346.443 JLINK_IsHalted()
T0654 4070:346.990 - 0.569ms returns FALSE
T0654 4070:347.032 JLINK_HasError()
T0654 4070:348.565 JLINK_IsHalted()
T0654 4070:349.081 - 0.536ms returns FALSE
T0654 4070:349.119 JLINK_HasError()
T0654 4070:350.559 JLINK_IsHalted()
T0654 4070:351.071 - 0.532ms returns FALSE
T0654 4070:351.109 JLINK_HasError()
T0654 4070:352.538 JLINK_IsHalted()
T0654 4070:353.108 - 0.590ms returns FALSE
T0654 4070:353.152 JLINK_HasError()
T0654 4070:354.545 JLINK_IsHalted()
T0654 4070:355.075 - 0.550ms returns FALSE
T0654 4070:355.114 JLINK_HasError()
T0654 4070:356.540 JLINK_IsHalted()
T0654 4070:356.964 - 0.445ms returns FALSE
T0654 4070:357.003 JLINK_HasError()
T0654 4070:358.547 JLINK_IsHalted()
T0654 4070:359.076 - 0.549ms returns FALSE
T0654 4070:359.115 JLINK_HasError()
T0654 4070:360.536 JLINK_IsHalted()
T0654 4070:361.039 - 0.523ms returns FALSE
T0654 4070:361.077 JLINK_HasError()
T0654 4070:362.553 JLINK_IsHalted()
T0654 4070:363.054 - 0.531ms returns FALSE
T0654 4070:363.108 JLINK_HasError()
T0654 4070:364.532 JLINK_IsHalted()
T0654 4070:365.049 - 0.536ms returns FALSE
T0654 4070:365.086 JLINK_HasError()
T0654 4070:366.516 JLINK_IsHalted()
T0654 4070:367.024 - 0.527ms returns FALSE
T0654 4070:367.067 JLINK_HasError()
T0654 4070:368.514 JLINK_IsHalted()
T0654 4070:369.034 - 0.539ms returns FALSE
T0654 4070:369.073 JLINK_HasError()
T0654 4070:370.510 JLINK_IsHalted()
T0654 4070:371.030 - 0.540ms returns FALSE
T0654 4070:371.068 JLINK_HasError()
T0654 4070:372.499 JLINK_IsHalted()
T0654 4070:372.992 - 0.513ms returns FALSE
T0654 4070:373.031 JLINK_HasError()
T0654 4070:374.478 JLINK_IsHalted()
T0654 4070:375.031 - 0.572ms returns FALSE
T0654 4070:375.069 JLINK_HasError()
T0654 4070:376.499 JLINK_IsHalted()
T0654 4070:377.039 - 0.559ms returns FALSE
T0654 4070:377.077 JLINK_HasError()
T0654 4070:378.592 JLINK_IsHalted()
T0654 4070:379.076 - 0.514ms returns FALSE
T0654 4070:379.138 JLINK_HasError()
T0654 4070:387.442 JLINK_IsHalted()
T0654 4070:387.993 - 0.571ms returns FALSE
T0654 4070:388.030 JLINK_HasError()
T0654 4070:389.455 JLINK_IsHalted()
T0654 4070:389.972 - 0.536ms returns FALSE
T0654 4070:390.010 JLINK_HasError()
T0654 4070:391.454 JLINK_IsHalted()
T0654 4070:391.980 - 0.545ms returns FALSE
T0654 4070:392.018 JLINK_HasError()
T0654 4070:393.450 JLINK_IsHalted()
T0654 4070:396.415 - 2.990ms returns TRUE
T0654 4070:396.458 JLINK_ReadReg(R15 (PC))
T0654 4070:396.476 - 0.024ms returns 0x10000000
T0654 4070:396.493 JLINK_ClrBPEx(BPHandle = 0x00000009)
T0654 4070:396.507 - 0.019ms returns 0x00
T0654 4070:396.524 JLINK_ReadReg(R0)
T0654 4070:396.537 - 0.018ms returns 0x00000000
T0654 4070:397.547 JLINK_HasError()
T0654 4070:397.582 JLINK_WriteReg(R0, 0x00004000)
T0654 4070:397.599 - 0.022ms returns 0
T0654 4070:397.615 JLINK_WriteReg(R1, 0x00001000)
T0654 4070:397.628 - 0.018ms returns 0
T0654 4070:397.644 JLINK_WriteReg(R2, 0x000000FF)
T0654 4070:397.656 - 0.018ms returns 0
T0654 4070:397.671 JLINK_WriteReg(R3, 0x00000000)
T0654 4070:397.684 - 0.018ms returns 0
T0654 4070:397.700 JLINK_WriteReg(R4, 0x00000000)
T0654 4070:397.712 - 0.017ms returns 0
T0654 4070:397.727 JLINK_WriteReg(R5, 0x00000000)
T0654 4070:397.739 - 0.017ms returns 0
T0654 4070:397.755 JLINK_WriteReg(R6, 0x00000000)
T0654 4070:397.767 - 0.017ms returns 0
T0654 4070:397.783 JLINK_WriteReg(R7, 0x00000000)
T0654 4070:397.795 - 0.018ms returns 0
T0654 4070:397.811 JLINK_WriteReg(R8, 0x00000000)
T0654 4070:397.823 - 0.018ms returns 0
T0654 4070:397.838 JLINK_WriteReg(R9, 0x10000174)
T0654 4070:397.850 - 0.017ms returns 0
T0654 4070:397.866 JLINK_WriteReg(R10, 0x00000000)
T0654 4070:397.878 - 0.018ms returns 0
T0654 4070:397.894 JLINK_WriteReg(R11, 0x00000000)
T0654 4070:397.906 - 0.018ms returns 0
T0654 4070:397.922 JLINK_WriteReg(R12, 0x00000000)
T0654 4070:397.934 - 0.017ms returns 0
T0654 4070:397.949 JLINK_WriteReg(R13 (SP), 0x10000800)
T0654 4070:397.962 - 0.018ms returns 0
T0654 4070:397.978 JLINK_WriteReg(R14, 0x10000001)
T0654 4070:397.990 - 0.018ms returns 0
T0654 4070:398.006 JLINK_WriteReg(R15 (PC), 0x10000020)
T0654 4070:398.018 - 0.018ms returns 0
T0654 4070:398.034 JLINK_WriteReg(XPSR, 0x01000000)
T0654 4070:398.046 - 0.018ms returns 0
T0654 4070:398.062 JLINK_WriteReg(MSP, 0x10000800)
T0654 4070:398.074 - 0.017ms returns 0
T0654 4070:398.090 JLINK_WriteReg(PSP, 0x10000800)
T0654 4070:398.102 - 0.017ms returns 0
T0654 4070:398.117 JLINK_WriteReg(CFBP, 0x00000000)
T0654 4070:398.129 - 0.017ms returns 0
T0654 4070:398.146 JLINK_SetBPEx(Addr = 0x10000000, Type = 0xFFFFFFF2)
T0654 4070:398.161 - 0.021ms returns 0x0000000A
T0654 4070:398.177 JLINK_Go()
T0654 4070:398.203   CPU_ReadMem(4 bytes @ 0xE0001000)
T0654 4070:401.213 - 3.060ms
T0654 4070:401.255 JLINK_IsHalted()
T0654 4070:404.254 - 3.025ms returns TRUE
T0654 4070:404.303 JLINK_ReadReg(R15 (PC))
T0654 4070:404.321 - 0.024ms returns 0x10000000
T0654 4070:404.476 JLINK_ClrBPEx(BPHandle = 0x0000000A)
T0654 4070:404.505 - 0.036ms returns 0x00
T0654 4070:404.525 JLINK_ReadReg(R0)
T0654 4070:404.539 - 0.019ms returns 0x00000001
T0654 4070:404.556 JLINK_HasError()
T0654 4070:404.573 JLINK_WriteReg(R0, 0x00004000)
T0654 4070:404.587 - 0.019ms returns 0
T0654 4070:404.603 JLINK_WriteReg(R1, 0x00001000)
T0654 4070:404.627 - 0.030ms returns 0
T0654 4070:404.644 JLINK_WriteReg(R2, 0x000000FF)
T0654 4070:404.656 - 0.018ms returns 0
T0654 4070:404.672 JLINK_WriteReg(R3, 0x00000000)
T0654 4070:404.684 - 0.018ms returns 0
T0654 4070:404.700 JLINK_WriteReg(R4, 0x00000000)
T0654 4070:404.712 - 0.017ms returns 0
T0654 4070:404.728 JLINK_WriteReg(R5, 0x00000000)
T0654 4070:404.740 - 0.018ms returns 0
T0654 4070:404.756 JLINK_WriteReg(R6, 0x00000000)
T0654 4070:404.768 - 0.018ms returns 0
T0654 4070:404.784 JLINK_WriteReg(R7, 0x00000000)
T0654 4070:404.796 - 0.018ms returns 0
T0654 4070:404.812 JLINK_WriteReg(R8, 0x00000000)
T0654 4070:404.841 - 0.036ms returns 0
T0654 4070:404.859 JLINK_WriteReg(R9, 0x10000174)
T0654 4070:404.872 - 0.019ms returns 0
T0654 4070:404.889 JLINK_WriteReg(R10, 0x00000000)
T0654 4070:404.906 - 0.023ms returns 0
T0654 4070:404.932 JLINK_WriteReg(R11, 0x00000000)
T0654 4070:404.958 - 0.035ms returns 0
T0654 4070:404.978 JLINK_WriteReg(R12, 0x00000000)
T0654 4070:404.991 - 0.018ms returns 0
T0654 4070:405.007 JLINK_WriteReg(R13 (SP), 0x10000800)
T0654 4070:405.020 - 0.019ms returns 0
T0654 4070:405.036 JLINK_WriteReg(R14, 0x10000001)
T0654 4070:405.048 - 0.018ms returns 0
T0654 4070:405.064 JLINK_WriteReg(R15 (PC), 0x100000AE)
T0654 4070:405.076 - 0.018ms returns 0
T0654 4070:405.092 JLINK_WriteReg(XPSR, 0x01000000)
T0654 4070:405.104 - 0.018ms returns 0
T0654 4070:405.120 JLINK_WriteReg(MSP, 0x10000800)
T0654 4070:405.132 - 0.018ms returns 0
T0654 4070:405.148 JLINK_WriteReg(PSP, 0x10000800)
T0654 4070:405.169 - 0.029ms returns 0
T0654 4070:405.188 JLINK_WriteReg(CFBP, 0x00000000)
T0654 4070:405.201 - 0.021ms returns 0
T0654 4070:405.221 JLINK_SetBPEx(Addr = 0x10000000, Type = 0xFFFFFFF2)
T0654 4070:405.237 - 0.021ms returns 0x0000000B
T0654 4070:405.253 JLINK_Go()
T0654 4070:405.280   CPU_ReadMem(4 bytes @ 0xE0001000)
